HEADER
"PSFversion" "1.00"
"simulator" "spectre"
"version" "15.1.0.284.isr1"
"date" "9:11:11 AM, Sat Sep 14, 2019"
"design" ""
"analysis type" "ac"
"analysis name" "aclin"
"analysis description" "AC Analysis `aclin': freq = (0 Hz -> 1 MHz)"
"xVecSorted" "ascending"
"tolerance.relative" 0.00100000
"start" 0.00000
"stop" 1.00000e+06
"operating point producer" "aclin"
TYPE
"sweep" FLOAT DOUBLE PROP(
"key" "sweep"
)
"Real" COMPLEX DOUBLE PROP(
"units" ""
"key" "node"
"tolerance" 1.00000e-06
)
"Tau" COMPLEX DOUBLE PROP(
"units" "N*m"
"key" "node"
"tolerance" 1.00000e-06
)
"Alpha" COMPLEX DOUBLE PROP(
"units" "rads/s^2"
"key" "node"
"tolerance" 1.00000e-06
)
"Omega" COMPLEX DOUBLE PROP(
"units" "rads/s"
"key" "node"
"tolerance" 1.00000e-06
)
"Theta" COMPLEX DOUBLE PROP(
"units" "rads"
"key" "node"
"tolerance" 1.00000e-06
)
"F" COMPLEX DOUBLE PROP(
"units" "N"
"key" "node"
"tolerance" 1.00000e-06
)
"Imp" COMPLEX DOUBLE PROP(
"units" "m/s^3"
"key" "node"
"tolerance" 1.00000e-06
)
"Acc" COMPLEX DOUBLE PROP(
"units" "m/s^2"
"key" "node"
"tolerance" 1.00000e-06
)
"Vel" COMPLEX DOUBLE PROP(
"units" "m/s"
"key" "node"
"tolerance" 1.00000e-06
)
"Pos" COMPLEX DOUBLE PROP(
"units" "m"
"key" "node"
"tolerance" 1.00000e-06
)
"Phi" COMPLEX DOUBLE PROP(
"units" "Wb"
"key" "node"
"tolerance" 1.00000e-09
)
"V" COMPLEX DOUBLE PROP(
"units" "V"
"key" "node"
"tolerance" 1.00000e-06
)
"I" COMPLEX DOUBLE PROP(
"units" "A"
"key" "branch"
"tolerance" 1.00000e-12
)
"MMF" COMPLEX DOUBLE PROP(
"units" "A*turn"
"key" "node"
"tolerance" 1.00000e-12
)
"Wb" COMPLEX DOUBLE PROP(
"units" "Wb"
"key" "node"
"tolerance" 1.00000e-09
)
"Temp" COMPLEX DOUBLE PROP(
"units" "C"
"key" "node"
"tolerance" 0.000100000
)
"Pwr" COMPLEX DOUBLE PROP(
"units" "W"
"key" "node"
"tolerance" 1.00000e-09
)
"U" COMPLEX DOUBLE PROP(
"units" ""
"key" "node"
"tolerance" 1.00000e-06
)
"V/Sec" COMPLEX DOUBLE PROP(
"units" "V/s"
"key" "node"
"tolerance" 0.000100000
)
"I/Sec" COMPLEX DOUBLE PROP(
"units" "A/s"
"key" "node"
"tolerance" 1.00000e-06
)
"1/Sec" COMPLEX DOUBLE PROP(
"units" "1/s"
"key" "node"
"tolerance" 0.000100000
)
"HOD" COMPLEX DOUBLE PROP(
"units" ""
"key" "node"
"tolerance" 0.0100000
)
"Q" COMPLEX DOUBLE PROP(
"units" "coul"
"key" "node"
"tolerance" 1.00000e-14
)
SWEEP
"freq" "sweep" PROP(
"sweep_direction" 0
"units" "Hz"
"plot" 0
"grid" 1
)
TRACE
"iRESref:p" "I"
"iRESva:p" "I"
"noiref" "V"
"noiva" "V"
"top" "V"
"topref" "V"
"topva" "V"
"VTOP:p" "I"
VALUE
"freq" 0.000000000000000e+00
"iRESref:p" (0.0100000 0.00000)
"iRESva:p" (0.0100000 0.00000)
"noiref" (0.0100000 0.00000)
"noiva" (0.0100000 0.00000)
"top" (1.00000 0.00000)
"topref" (1.00000 0.00000)
"topva" (1.00000 0.00000)
"VTOP:p" (-0.0200000 0.00000)
"freq" 1.000000000000000e+03
"iRESref:p" (0.0100000 0.00000)
"iRESva:p" (0.0100000 0.00000)
"noiref" (0.0100000 0.00000)
"noiva" (0.0100000 0.00000)
"top" (1.00000 0.00000)
"topref" (1.00000 0.00000)
"topva" (1.00000 0.00000)
"VTOP:p" (-0.0200000 0.00000)
"freq" 2.000000000000000e+03
"iRESref:p" (0.0100000 0.00000)
"iRESva:p" (0.0100000 0.00000)
"noiref" (0.0100000 0.00000)
"noiva" (0.0100000 0.00000)
"top" (1.00000 0.00000)
"topref" (1.00000 0.00000)
"topva" (1.00000 0.00000)
"VTOP:p" (-0.0200000 0.00000)
"freq" 3.000000000000000e+03
"iRESref:p" (0.0100000 0.00000)
"iRESva:p" (0.0100000 0.00000)
"noiref" (0.0100000 0.00000)
"noiva" (0.0100000 0.00000)
"top" (1.00000 0.00000)
"topref" (1.00000 0.00000)
"topva" (1.00000 0.00000)
"VTOP:p" (-0.0200000 0.00000)
"freq" 4.000000000000000e+03
"iRESref:p" (0.0100000 0.00000)
"iRESva:p" (0.0100000 0.00000)
"noiref" (0.0100000 0.00000)
"noiva" (0.0100000 0.00000)
"top" (1.00000 0.00000)
"topref" (1.00000 0.00000)
"topva" (1.00000 0.00000)
"VTOP:p" (-0.0200000 0.00000)
"freq" 5.000000000000000e+03
"iRESref:p" (0.0100000 0.00000)
"iRESva:p" (0.0100000 0.00000)
"noiref" (0.0100000 0.00000)
"noiva" (0.0100000 0.00000)
"top" (1.00000 0.00000)
"topref" (1.00000 0.00000)
"topva" (1.00000 0.00000)
"VTOP:p" (-0.0200000 0.00000)
"freq" 6.000000000000000e+03
"iRESref:p" (0.0100000 0.00000)
"iRESva:p" (0.0100000 0.00000)
"noiref" (0.0100000 0.00000)
"noiva" (0.0100000 0.00000)
"top" (1.00000 0.00000)
"topref" (1.00000 0.00000)
"topva" (1.00000 0.00000)
"VTOP:p" (-0.0200000 0.00000)
"freq" 7.000000000000000e+03
"iRESref:p" (0.0100000 0.00000)
"iRESva:p" (0.0100000 0.00000)
"noiref" (0.0100000 0.00000)
"noiva" (0.0100000 0.00000)
"top" (1.00000 0.00000)
"topref" (1.00000 0.00000)
"topva" (1.00000 0.00000)
"VTOP:p" (-0.0200000 0.00000)
"freq" 8.000000000000000e+03
"iRESref:p" (0.0100000 0.00000)
"iRESva:p" (0.0100000 0.00000)
"noiref" (0.0100000 0.00000)
"noiva" (0.0100000 0.00000)
"top" (1.00000 0.00000)
"topref" (1.00000 0.00000)
"topva" (1.00000 0.00000)
"VTOP:p" (-0.0200000 0.00000)
"freq" 9.000000000000000e+03
"iRESref:p" (0.0100000 0.00000)
"iRESva:p" (0.0100000 0.00000)
"noiref" (0.0100000 0.00000)
"noiva" (0.0100000 0.00000)
"top" (1.00000 0.00000)
"topref" (1.00000 0.00000)
"topva" (1.00000 0.00000)
"VTOP:p" (-0.0200000 0.00000)
"freq" 1.000000000000000e+04
"iRESref:p" (0.0100000 0.00000)
"iRESva:p" (0.0100000 0.00000)
"noiref" (0.0100000 0.00000)
"noiva" (0.0100000 0.00000)
"top" (1.00000 0.00000)
"topref" (1.00000 0.00000)
"topva" (1.00000 0.00000)
"VTOP:p" (-0.0200000 0.00000)
"freq" 1.100000000000000e+04
"iRESref:p" (0.0100000 0.00000)
"iRESva:p" (0.0100000 0.00000)
"noiref" (0.0100000 0.00000)
"noiva" (0.0100000 0.00000)
"top" (1.00000 0.00000)
"topref" (1.00000 0.00000)
"topva" (1.00000 0.00000)
"VTOP:p" (-0.0200000 0.00000)
"freq" 1.200000000000000e+04
"iRESref:p" (0.0100000 0.00000)
"iRESva:p" (0.0100000 0.00000)
"noiref" (0.0100000 0.00000)
"noiva" (0.0100000 0.00000)
"top" (1.00000 0.00000)
"topref" (1.00000 0.00000)
"topva" (1.00000 0.00000)
"VTOP:p" (-0.0200000 0.00000)
"freq" 1.300000000000000e+04
"iRESref:p" (0.0100000 0.00000)
"iRESva:p" (0.0100000 0.00000)
"noiref" (0.0100000 0.00000)
"noiva" (0.0100000 0.00000)
"top" (1.00000 0.00000)
"topref" (1.00000 0.00000)
"topva" (1.00000 0.00000)
"VTOP:p" (-0.0200000 0.00000)
"freq" 1.400000000000000e+04
"iRESref:p" (0.0100000 0.00000)
"iRESva:p" (0.0100000 0.00000)
"noiref" (0.0100000 0.00000)
"noiva" (0.0100000 0.00000)
"top" (1.00000 0.00000)
"topref" (1.00000 0.00000)
"topva" (1.00000 0.00000)
"VTOP:p" (-0.0200000 0.00000)
"freq" 1.500000000000000e+04
"iRESref:p" (0.0100000 0.00000)
"iRESva:p" (0.0100000 0.00000)
"noiref" (0.0100000 0.00000)
"noiva" (0.0100000 0.00000)
"top" (1.00000 0.00000)
"topref" (1.00000 0.00000)
"topva" (1.00000 0.00000)
"VTOP:p" (-0.0200000 0.00000)
"freq" 1.600000000000000e+04
"iRESref:p" (0.0100000 0.00000)
"iRESva:p" (0.0100000 0.00000)
"noiref" (0.0100000 0.00000)
"noiva" (0.0100000 0.00000)
"top" (1.00000 0.00000)
"topref" (1.00000 0.00000)
"topva" (1.00000 0.00000)
"VTOP:p" (-0.0200000 0.00000)
"freq" 1.700000000000000e+04
"iRESref:p" (0.0100000 0.00000)
"iRESva:p" (0.0100000 0.00000)
"noiref" (0.0100000 0.00000)
"noiva" (0.0100000 0.00000)
"top" (1.00000 0.00000)
"topref" (1.00000 0.00000)
"topva" (1.00000 0.00000)
"VTOP:p" (-0.0200000 0.00000)
"freq" 1.800000000000000e+04
"iRESref:p" (0.0100000 0.00000)
"iRESva:p" (0.0100000 0.00000)
"noiref" (0.0100000 0.00000)
"noiva" (0.0100000 0.00000)
"top" (1.00000 0.00000)
"topref" (1.00000 0.00000)
"topva" (1.00000 0.00000)
"VTOP:p" (-0.0200000 0.00000)
"freq" 1.900000000000000e+04
"iRESref:p" (0.0100000 0.00000)
"iRESva:p" (0.0100000 0.00000)
"noiref" (0.0100000 0.00000)
"noiva" (0.0100000 0.00000)
"top" (1.00000 0.00000)
"topref" (1.00000 0.00000)
"topva" (1.00000 0.00000)
"VTOP:p" (-0.0200000 0.00000)
"freq" 2.000000000000000e+04
"iRESref:p" (0.0100000 0.00000)
"iRESva:p" (0.0100000 0.00000)
"noiref" (0.0100000 0.00000)
"noiva" (0.0100000 0.00000)
"top" (1.00000 0.00000)
"topref" (1.00000 0.00000)
"topva" (1.00000 0.00000)
"VTOP:p" (-0.0200000 0.00000)
"freq" 2.100000000000000e+04
"iRESref:p" (0.0100000 0.00000)
"iRESva:p" (0.0100000 0.00000)
"noiref" (0.0100000 0.00000)
"noiva" (0.0100000 0.00000)
"top" (1.00000 0.00000)
"topref" (1.00000 0.00000)
"topva" (1.00000 0.00000)
"VTOP:p" (-0.0200000 0.00000)
"freq" 2.200000000000000e+04
"iRESref:p" (0.0100000 0.00000)
"iRESva:p" (0.0100000 0.00000)
"noiref" (0.0100000 0.00000)
"noiva" (0.0100000 0.00000)
"top" (1.00000 0.00000)
"topref" (1.00000 0.00000)
"topva" (1.00000 0.00000)
"VTOP:p" (-0.0200000 0.00000)
"freq" 2.300000000000000e+04
"iRESref:p" (0.0100000 0.00000)
"iRESva:p" (0.0100000 0.00000)
"noiref" (0.0100000 0.00000)
"noiva" (0.0100000 0.00000)
"top" (1.00000 0.00000)
"topref" (1.00000 0.00000)
"topva" (1.00000 0.00000)
"VTOP:p" (-0.0200000 0.00000)
"freq" 2.400000000000000e+04
"iRESref:p" (0.0100000 0.00000)
"iRESva:p" (0.0100000 0.00000)
"noiref" (0.0100000 0.00000)
"noiva" (0.0100000 0.00000)
"top" (1.00000 0.00000)
"topref" (1.00000 0.00000)
"topva" (1.00000 0.00000)
"VTOP:p" (-0.0200000 0.00000)
"freq" 2.500000000000000e+04
"iRESref:p" (0.0100000 0.00000)
"iRESva:p" (0.0100000 0.00000)
"noiref" (0.0100000 0.00000)
"noiva" (0.0100000 0.00000)
"top" (1.00000 0.00000)
"topref" (1.00000 0.00000)
"topva" (1.00000 0.00000)
"VTOP:p" (-0.0200000 0.00000)
"freq" 2.600000000000000e+04
"iRESref:p" (0.0100000 0.00000)
"iRESva:p" (0.0100000 0.00000)
"noiref" (0.0100000 0.00000)
"noiva" (0.0100000 0.00000)
"top" (1.00000 0.00000)
"topref" (1.00000 0.00000)
"topva" (1.00000 0.00000)
"VTOP:p" (-0.0200000 0.00000)
"freq" 2.700000000000000e+04
"iRESref:p" (0.0100000 0.00000)
"iRESva:p" (0.0100000 0.00000)
"noiref" (0.0100000 0.00000)
"noiva" (0.0100000 0.00000)
"top" (1.00000 0.00000)
"topref" (1.00000 0.00000)
"topva" (1.00000 0.00000)
"VTOP:p" (-0.0200000 0.00000)
"freq" 2.800000000000000e+04
"iRESref:p" (0.0100000 0.00000)
"iRESva:p" (0.0100000 0.00000)
"noiref" (0.0100000 0.00000)
"noiva" (0.0100000 0.00000)
"top" (1.00000 0.00000)
"topref" (1.00000 0.00000)
"topva" (1.00000 0.00000)
"VTOP:p" (-0.0200000 0.00000)
"freq" 2.900000000000000e+04
"iRESref:p" (0.0100000 0.00000)
"iRESva:p" (0.0100000 0.00000)
"noiref" (0.0100000 0.00000)
"noiva" (0.0100000 0.00000)
"top" (1.00000 0.00000)
"topref" (1.00000 0.00000)
"topva" (1.00000 0.00000)
"VTOP:p" (-0.0200000 0.00000)
"freq" 3.000000000000000e+04
"iRESref:p" (0.0100000 0.00000)
"iRESva:p" (0.0100000 0.00000)
"noiref" (0.0100000 0.00000)
"noiva" (0.0100000 0.00000)
"top" (1.00000 0.00000)
"topref" (1.00000 0.00000)
"topva" (1.00000 0.00000)
"VTOP:p" (-0.0200000 0.00000)
"freq" 3.100000000000000e+04
"iRESref:p" (0.0100000 0.00000)
"iRESva:p" (0.0100000 0.00000)
"noiref" (0.0100000 0.00000)
"noiva" (0.0100000 0.00000)
"top" (1.00000 0.00000)
"topref" (1.00000 0.00000)
"topva" (1.00000 0.00000)
"VTOP:p" (-0.0200000 0.00000)
"freq" 3.200000000000000e+04
"iRESref:p" (0.0100000 0.00000)
"iRESva:p" (0.0100000 0.00000)
"noiref" (0.0100000 0.00000)
"noiva" (0.0100000 0.00000)
"top" (1.00000 0.00000)
"topref" (1.00000 0.00000)
"topva" (1.00000 0.00000)
"VTOP:p" (-0.0200000 0.00000)
"freq" 3.300000000000000e+04
"iRESref:p" (0.0100000 0.00000)
"iRESva:p" (0.0100000 0.00000)
"noiref" (0.0100000 0.00000)
"noiva" (0.0100000 0.00000)
"top" (1.00000 0.00000)
"topref" (1.00000 0.00000)
"topva" (1.00000 0.00000)
"VTOP:p" (-0.0200000 0.00000)
"freq" 3.400000000000000e+04
"iRESref:p" (0.0100000 0.00000)
"iRESva:p" (0.0100000 0.00000)
"noiref" (0.0100000 0.00000)
"noiva" (0.0100000 0.00000)
"top" (1.00000 0.00000)
"topref" (1.00000 0.00000)
"topva" (1.00000 0.00000)
"VTOP:p" (-0.0200000 0.00000)
"freq" 3.500000000000000e+04
"iRESref:p" (0.0100000 0.00000)
"iRESva:p" (0.0100000 0.00000)
"noiref" (0.0100000 0.00000)
"noiva" (0.0100000 0.00000)
"top" (1.00000 0.00000)
"topref" (1.00000 0.00000)
"topva" (1.00000 0.00000)
"VTOP:p" (-0.0200000 0.00000)
"freq" 3.600000000000000e+04
"iRESref:p" (0.0100000 0.00000)
"iRESva:p" (0.0100000 0.00000)
"noiref" (0.0100000 0.00000)
"noiva" (0.0100000 0.00000)
"top" (1.00000 0.00000)
"topref" (1.00000 0.00000)
"topva" (1.00000 0.00000)
"VTOP:p" (-0.0200000 0.00000)
"freq" 3.700000000000000e+04
"iRESref:p" (0.0100000 0.00000)
"iRESva:p" (0.0100000 0.00000)
"noiref" (0.0100000 0.00000)
"noiva" (0.0100000 0.00000)
"top" (1.00000 0.00000)
"topref" (1.00000 0.00000)
"topva" (1.00000 0.00000)
"VTOP:p" (-0.0200000 0.00000)
"freq" 3.800000000000000e+04
"iRESref:p" (0.0100000 0.00000)
"iRESva:p" (0.0100000 0.00000)
"noiref" (0.0100000 0.00000)
"noiva" (0.0100000 0.00000)
"top" (1.00000 0.00000)
"topref" (1.00000 0.00000)
"topva" (1.00000 0.00000)
"VTOP:p" (-0.0200000 0.00000)
"freq" 3.900000000000000e+04
"iRESref:p" (0.0100000 0.00000)
"iRESva:p" (0.0100000 0.00000)
"noiref" (0.0100000 0.00000)
"noiva" (0.0100000 0.00000)
"top" (1.00000 0.00000)
"topref" (1.00000 0.00000)
"topva" (1.00000 0.00000)
"VTOP:p" (-0.0200000 0.00000)
"freq" 4.000000000000000e+04
"iRESref:p" (0.0100000 0.00000)
"iRESva:p" (0.0100000 0.00000)
"noiref" (0.0100000 0.00000)
"noiva" (0.0100000 0.00000)
"top" (1.00000 0.00000)
"topref" (1.00000 0.00000)
"topva" (1.00000 0.00000)
"VTOP:p" (-0.0200000 0.00000)
"freq" 4.100000000000000e+04
"iRESref:p" (0.0100000 0.00000)
"iRESva:p" (0.0100000 0.00000)
"noiref" (0.0100000 0.00000)
"noiva" (0.0100000 0.00000)
"top" (1.00000 0.00000)
"topref" (1.00000 0.00000)
"topva" (1.00000 0.00000)
"VTOP:p" (-0.0200000 0.00000)
"freq" 4.200000000000000e+04
"iRESref:p" (0.0100000 0.00000)
"iRESva:p" (0.0100000 0.00000)
"noiref" (0.0100000 0.00000)
"noiva" (0.0100000 0.00000)
"top" (1.00000 0.00000)
"topref" (1.00000 0.00000)
"topva" (1.00000 0.00000)
"VTOP:p" (-0.0200000 0.00000)
"freq" 4.300000000000000e+04
"iRESref:p" (0.0100000 0.00000)
"iRESva:p" (0.0100000 0.00000)
"noiref" (0.0100000 0.00000)
"noiva" (0.0100000 0.00000)
"top" (1.00000 0.00000)
"topref" (1.00000 0.00000)
"topva" (1.00000 0.00000)
"VTOP:p" (-0.0200000 0.00000)
"freq" 4.400000000000000e+04
"iRESref:p" (0.0100000 0.00000)
"iRESva:p" (0.0100000 0.00000)
"noiref" (0.0100000 0.00000)
"noiva" (0.0100000 0.00000)
"top" (1.00000 0.00000)
"topref" (1.00000 0.00000)
"topva" (1.00000 0.00000)
"VTOP:p" (-0.0200000 0.00000)
"freq" 4.500000000000000e+04
"iRESref:p" (0.0100000 0.00000)
"iRESva:p" (0.0100000 0.00000)
"noiref" (0.0100000 0.00000)
"noiva" (0.0100000 0.00000)
"top" (1.00000 0.00000)
"topref" (1.00000 0.00000)
"topva" (1.00000 0.00000)
"VTOP:p" (-0.0200000 0.00000)
"freq" 4.600000000000000e+04
"iRESref:p" (0.0100000 0.00000)
"iRESva:p" (0.0100000 0.00000)
"noiref" (0.0100000 0.00000)
"noiva" (0.0100000 0.00000)
"top" (1.00000 0.00000)
"topref" (1.00000 0.00000)
"topva" (1.00000 0.00000)
"VTOP:p" (-0.0200000 0.00000)
"freq" 4.700000000000000e+04
"iRESref:p" (0.0100000 0.00000)
"iRESva:p" (0.0100000 0.00000)
"noiref" (0.0100000 0.00000)
"noiva" (0.0100000 0.00000)
"top" (1.00000 0.00000)
"topref" (1.00000 0.00000)
"topva" (1.00000 0.00000)
"VTOP:p" (-0.0200000 0.00000)
"freq" 4.800000000000000e+04
"iRESref:p" (0.0100000 0.00000)
"iRESva:p" (0.0100000 0.00000)
"noiref" (0.0100000 0.00000)
"noiva" (0.0100000 0.00000)
"top" (1.00000 0.00000)
"topref" (1.00000 0.00000)
"topva" (1.00000 0.00000)
"VTOP:p" (-0.0200000 0.00000)
"freq" 4.900000000000000e+04
"iRESref:p" (0.0100000 0.00000)
"iRESva:p" (0.0100000 0.00000)
"noiref" (0.0100000 0.00000)
"noiva" (0.0100000 0.00000)
"top" (1.00000 0.00000)
"topref" (1.00000 0.00000)
"topva" (1.00000 0.00000)
"VTOP:p" (-0.0200000 0.00000)
"freq" 5.000000000000000e+04
"iRESref:p" (0.0100000 0.00000)
"iRESva:p" (0.0100000 0.00000)
"noiref" (0.0100000 0.00000)
"noiva" (0.0100000 0.00000)
"top" (1.00000 0.00000)
"topref" (1.00000 0.00000)
"topva" (1.00000 0.00000)
"VTOP:p" (-0.0200000 0.00000)
"freq" 5.100000000000000e+04
"iRESref:p" (0.0100000 0.00000)
"iRESva:p" (0.0100000 0.00000)
"noiref" (0.0100000 0.00000)
"noiva" (0.0100000 0.00000)
"top" (1.00000 0.00000)
"topref" (1.00000 0.00000)
"topva" (1.00000 0.00000)
"VTOP:p" (-0.0200000 0.00000)
"freq" 5.200000000000000e+04
"iRESref:p" (0.0100000 0.00000)
"iRESva:p" (0.0100000 0.00000)
"noiref" (0.0100000 0.00000)
"noiva" (0.0100000 0.00000)
"top" (1.00000 0.00000)
"topref" (1.00000 0.00000)
"topva" (1.00000 0.00000)
"VTOP:p" (-0.0200000 0.00000)
"freq" 5.300000000000000e+04
"iRESref:p" (0.0100000 0.00000)
"iRESva:p" (0.0100000 0.00000)
"noiref" (0.0100000 0.00000)
"noiva" (0.0100000 0.00000)
"top" (1.00000 0.00000)
"topref" (1.00000 0.00000)
"topva" (1.00000 0.00000)
"VTOP:p" (-0.0200000 0.00000)
"freq" 5.400000000000000e+04
"iRESref:p" (0.0100000 0.00000)
"iRESva:p" (0.0100000 0.00000)
"noiref" (0.0100000 0.00000)
"noiva" (0.0100000 0.00000)
"top" (1.00000 0.00000)
"topref" (1.00000 0.00000)
"topva" (1.00000 0.00000)
"VTOP:p" (-0.0200000 0.00000)
"freq" 5.500000000000000e+04
"iRESref:p" (0.0100000 0.00000)
"iRESva:p" (0.0100000 0.00000)
"noiref" (0.0100000 0.00000)
"noiva" (0.0100000 0.00000)
"top" (1.00000 0.00000)
"topref" (1.00000 0.00000)
"topva" (1.00000 0.00000)
"VTOP:p" (-0.0200000 0.00000)
"freq" 5.600000000000000e+04
"iRESref:p" (0.0100000 0.00000)
"iRESva:p" (0.0100000 0.00000)
"noiref" (0.0100000 0.00000)
"noiva" (0.0100000 0.00000)
"top" (1.00000 0.00000)
"topref" (1.00000 0.00000)
"topva" (1.00000 0.00000)
"VTOP:p" (-0.0200000 0.00000)
"freq" 5.700000000000000e+04
"iRESref:p" (0.0100000 0.00000)
"iRESva:p" (0.0100000 0.00000)
"noiref" (0.0100000 0.00000)
"noiva" (0.0100000 0.00000)
"top" (1.00000 0.00000)
"topref" (1.00000 0.00000)
"topva" (1.00000 0.00000)
"VTOP:p" (-0.0200000 0.00000)
"freq" 5.800000000000000e+04
"iRESref:p" (0.0100000 0.00000)
"iRESva:p" (0.0100000 0.00000)
"noiref" (0.0100000 0.00000)
"noiva" (0.0100000 0.00000)
"top" (1.00000 0.00000)
"topref" (1.00000 0.00000)
"topva" (1.00000 0.00000)
"VTOP:p" (-0.0200000 0.00000)
"freq" 5.900000000000000e+04
"iRESref:p" (0.0100000 0.00000)
"iRESva:p" (0.0100000 0.00000)
"noiref" (0.0100000 0.00000)
"noiva" (0.0100000 0.00000)
"top" (1.00000 0.00000)
"topref" (1.00000 0.00000)
"topva" (1.00000 0.00000)
"VTOP:p" (-0.0200000 0.00000)
"freq" 6.000000000000000e+04
"iRESref:p" (0.0100000 0.00000)
"iRESva:p" (0.0100000 0.00000)
"noiref" (0.0100000 0.00000)
"noiva" (0.0100000 0.00000)
"top" (1.00000 0.00000)
"topref" (1.00000 0.00000)
"topva" (1.00000 0.00000)
"VTOP:p" (-0.0200000 0.00000)
"freq" 6.100000000000000e+04
"iRESref:p" (0.0100000 0.00000)
"iRESva:p" (0.0100000 0.00000)
"noiref" (0.0100000 0.00000)
"noiva" (0.0100000 0.00000)
"top" (1.00000 0.00000)
"topref" (1.00000 0.00000)
"topva" (1.00000 0.00000)
"VTOP:p" (-0.0200000 0.00000)
"freq" 6.200000000000000e+04
"iRESref:p" (0.0100000 0.00000)
"iRESva:p" (0.0100000 0.00000)
"noiref" (0.0100000 0.00000)
"noiva" (0.0100000 0.00000)
"top" (1.00000 0.00000)
"topref" (1.00000 0.00000)
"topva" (1.00000 0.00000)
"VTOP:p" (-0.0200000 0.00000)
"freq" 6.300000000000000e+04
"iRESref:p" (0.0100000 0.00000)
"iRESva:p" (0.0100000 0.00000)
"noiref" (0.0100000 0.00000)
"noiva" (0.0100000 0.00000)
"top" (1.00000 0.00000)
"topref" (1.00000 0.00000)
"topva" (1.00000 0.00000)
"VTOP:p" (-0.0200000 0.00000)
"freq" 6.400000000000000e+04
"iRESref:p" (0.0100000 0.00000)
"iRESva:p" (0.0100000 0.00000)
"noiref" (0.0100000 0.00000)
"noiva" (0.0100000 0.00000)
"top" (1.00000 0.00000)
"topref" (1.00000 0.00000)
"topva" (1.00000 0.00000)
"VTOP:p" (-0.0200000 0.00000)
"freq" 6.500000000000000e+04
"iRESref:p" (0.0100000 0.00000)
"iRESva:p" (0.0100000 0.00000)
"noiref" (0.0100000 0.00000)
"noiva" (0.0100000 0.00000)
"top" (1.00000 0.00000)
"topref" (1.00000 0.00000)
"topva" (1.00000 0.00000)
"VTOP:p" (-0.0200000 0.00000)
"freq" 6.600000000000000e+04
"iRESref:p" (0.0100000 0.00000)
"iRESva:p" (0.0100000 0.00000)
"noiref" (0.0100000 0.00000)
"noiva" (0.0100000 0.00000)
"top" (1.00000 0.00000)
"topref" (1.00000 0.00000)
"topva" (1.00000 0.00000)
"VTOP:p" (-0.0200000 0.00000)
"freq" 6.700000000000000e+04
"iRESref:p" (0.0100000 0.00000)
"iRESva:p" (0.0100000 0.00000)
"noiref" (0.0100000 0.00000)
"noiva" (0.0100000 0.00000)
"top" (1.00000 0.00000)
"topref" (1.00000 0.00000)
"topva" (1.00000 0.00000)
"VTOP:p" (-0.0200000 0.00000)
"freq" 6.800000000000000e+04
"iRESref:p" (0.0100000 0.00000)
"iRESva:p" (0.0100000 0.00000)
"noiref" (0.0100000 0.00000)
