HEADER
"PSFversion" "1.00"
"simulator" "spectre"
"version" "15.1.0.284.isr1"
"date" "9:11:11 AM, Sat Sep 14, 2019"
"design" ""
"analysis type" "noise"
"analysis name" "noiref"
"analysis description" "Noise Analysis `noiref': freq = (4 Hz -> 4.19 MHz)"
"xVecSorted" "ascending"
"tolerance.relative" 0.00100000
"operating point producer" "noiva"
"output" "pair of nodes"
"ground" "0"
"positive output signal" "noiref"
"negative output signal" "0"
TYPE
"sweep" FLOAT DOUBLE PROP(
"key" "sweep"
)
"V/sqrt(Hz)" FLOAT DOUBLE PROP(
"units" "V/sqrt(Hz)"
"key" "noise"
)
"V^2/Hz" FLOAT DOUBLE PROP(
"units" "V^2/Hz"
"key" "noise"
)
"res_va" STRUCT(
"flicker" FLOAT DOUBLE PROP(
"units" "V^2/Hz"
)
"thermal" FLOAT DOUBLE PROP(
"units" "V^2/Hz"
)
"total" FLOAT DOUBLE PROP(
"units" "V^2/Hz"
)
) PROP(
"key" "inst"
"master" "res_va"
)
"resistor" STRUCT(
"rn" FLOAT DOUBLE PROP(
"units" "V^2/Hz"
)
"total" FLOAT DOUBLE PROP(
"units" "V^2/Hz"
)
) PROP(
"key" "inst"
"master" "resistor"
)
"rref" STRUCT(
"rn" FLOAT DOUBLE PROP(
"units" "V^2/Hz"
)
"fn" FLOAT DOUBLE PROP(
"units" "V^2/Hz"
)
"total" FLOAT DOUBLE PROP(
"units" "V^2/Hz"
)
) PROP(
"key" "inst"
"master" "resistor"
)
SWEEP
"freq" "sweep" PROP(
"sweep_direction" 0
"units" "Hz"
"plot" 0
"grid" 3
)
TRACE
"RESva" "res_va"
"Rref" "resistor"
"Rva" "resistor"
"RESref" "rref"
"out" "V/sqrt(Hz)"
VALUE
"freq" 4.000000000000000e+00
"RESva" (
0.000000000000000e+00
0.000000000000000e+00
0.000000000000000e+00
)
"Rref" (
0.000000000000000e+00
0.000000000000000e+00
)
"Rva" (
0.000000000000000e+00
0.000000000000000e+00
)
"RESref" (
1.657575493560000e-22
2.500000000000000e-11
2.500000000016576e-11
)
"out" 5.000000000016576e-06
"freq" 4.488073817207853e+00
"RESva" (
0.000000000000000e+00
0.000000000000000e+00
0.000000000000000e+00
)
"Rref" (
0.000000000000000e+00
0.000000000000000e+00
)
"Rva" (
0.000000000000000e+00
0.000000000000000e+00
)
"RESref" (
1.657575493560000e-22
2.228127345334364e-11
2.228127345350939e-11
)
"out" 4.720304381447175e-06
"freq" 5.035701647176668e+00
"RESva" (
0.000000000000000e+00
0.000000000000000e+00
0.000000000000000e+00
)
"Rref" (
0.000000000000000e+00
0.000000000000000e+00
)
"Rva" (
0.000000000000000e+00
0.000000000000000e+00
)
"RESref" (
1.657575493560000e-22
1.985820586810704e-11
1.985820586827280e-11
)
"out" 4.456254690687326e-06
"freq" 5.650150178491016e+00
"RESva" (
0.000000000000000e+00
0.000000000000000e+00
0.000000000000000e+00
)
"Rref" (
0.000000000000000e+00
0.000000000000000e+00
)
"Rva" (
0.000000000000000e+00
0.000000000000000e+00
)
"RESref" (
1.657575493560000e-22
1.769864460960345e-11
1.769864460976921e-11
)
"out" 4.206975708245676e-06
"freq" 6.339572769844452e+00
"RESva" (
0.000000000000000e+00
0.000000000000000e+00
0.000000000000000e+00
)
"Rref" (
0.000000000000000e+00
0.000000000000000e+00
)
"Rva" (
0.000000000000000e+00
0.000000000000000e+00
)
"RESref" (
1.657575493560000e-22
1.577393361200483e-11
1.577393361217059e-11
)
"out" 3.971641173642275e-06
"freq" 7.113117640155688e+00
"RESva" (
0.000000000000000e+00
0.000000000000000e+00
0.000000000000000e+00
)
"Rref" (
0.000000000000000e+00
0.000000000000000e+00
)
"Rva" (
0.000000000000000e+00
0.000000000000000e+00
)
"RESref" (
1.657575493560000e-22
1.405853312975873e-11
1.405853312992449e-11
)
"out" 3.749471046684384e-06
"freq" 7.981049259875515e+00
"RESva" (
0.000000000000000e+00
0.000000000000000e+00
0.000000000000000e+00
)
"Rref" (
0.000000000000000e+00
0.000000000000000e+00
)
"Rva" (
0.000000000000000e+00
0.000000000000000e+00
)
"RESref" (
1.657575493560000e-22
1.252968084068181e-11
1.252968084084757e-11
)
"out" 3.539728921944104e-06
"freq" 8.954884554273354e+00
"RESva" (
0.000000000000000e+00
0.000000000000000e+00
0.000000000000000e+00
)
"Rref" (
0.000000000000000e+00
0.000000000000000e+00
)
"Rva" (
0.000000000000000e+00
0.000000000000000e+00
)
"RESref" (
1.657575493560000e-22
1.116708980377408e-11
1.116708980393984e-11
)
"out" 3.341719587867875e-06
"freq" 1.004754572603832e+01
"RESva" (
0.000000000000000e+00
0.000000000000000e+00
0.000000000000000e+00
)
"Rref" (
0.000000000000000e+00
0.000000000000000e+00
)
"Rva" (
0.000000000000000e+00
0.000000000000000e+00
)
"RESref" (
1.657575493560000e-22
9.952679263837437e-12
9.952679264003194e-12
)
"out" 3.154786722427238e-06
"freq" 1.127353172505781e+01
"RESva" (
0.000000000000000e+00
0.000000000000000e+00
0.000000000000000e+00
)
"Rref" (
0.000000000000000e+00
0.000000000000000e+00
)
"Rva" (
0.000000000000000e+00
0.000000000000000e+00
)
"RESref" (
1.657575493560000e-22
8.870334730839392e-12
8.870334731005150e-12
)
"out" 2.978310717672881e-06
"freq" 1.264911064067351e+01
"RESva" (
0.000000000000000e+00
0.000000000000000e+00
0.000000000000000e+00
)
"Rref" (
0.000000000000000e+00
0.000000000000000e+00
)
"Rva" (
0.000000000000000e+00
0.000000000000000e+00
)
"RESref" (
1.657575493560000e-22
7.905694150420953e-12
7.905694150586711e-12
)
"out" 2.811706625981223e-06
"freq" 1.419253556934301e+01
"RESva" (
0.000000000000000e+00
0.000000000000000e+00
0.000000000000000e+00
)
"Rref" (
0.000000000000000e+00
0.000000000000000e+00
)
"Rva" (
0.000000000000000e+00
0.000000000000000e+00
)
"RESref" (
1.657575493560000e-22
7.045957328161142e-12
7.045957328326899e-12
)
"out" 2.654422221186166e-06
"freq" 1.592428682213987e+01
"RESva" (
0.000000000000000e+00
0.000000000000000e+00
0.000000000000000e+00
)
"Rref" (
0.000000000000000e+00
0.000000000000000e+00
)
"Rva" (
0.000000000000000e+00
0.000000000000000e+00
)
"RESref" (
1.657575493560000e-22
6.279716078773956e-12
6.279716078939713e-12
)
"out" 2.505936168169435e-06
"freq" 1.786734368603851e+01
"RESva" (
0.000000000000000e+00
0.000000000000000e+00
0.000000000000000e+00
)
"Rref" (
0.000000000000000e+00
0.000000000000000e+00
)
"Rva" (
0.000000000000000e+00
0.000000000000000e+00
)
"RESref" (
1.657575493560000e-22
5.596802846420855e-12
5.596802846586613e-12
)
"out" 2.365756294842436e-06
"freq" 2.004748934509087e+01
"RESva" (
0.000000000000000e+00
0.000000000000000e+00
0.000000000000000e+00
)
"Rref" (
0.000000000000000e+00
0.000000000000000e+00
)
"Rva" (
0.000000000000000e+00
0.000000000000000e+00
)
"RESref" (
1.657575493560000e-22
4.988155787422205e-12
4.988155787587962e-12
)
"out" 2.233417960791925e-06
"freq" 2.249365300761394e+01
"RESva" (
0.000000000000000e+00
0.000000000000000e+00
0.000000000000000e+00
)
"Rref" (
0.000000000000000e+00
0.000000000000000e+00
)
"Rva" (
0.000000000000000e+00
0.000000000000000e+00
)
"RESref" (
1.657575493560000e-22
4.445698525097312e-12
4.445698525263070e-12
)
"out" 2.108482517182220e-06
"freq" 2.523829377920770e+01
"RESva" (
0.000000000000000e+00
0.000000000000000e+00
0.000000000000000e+00
)
"Rref" (
0.000000000000000e+00
0.000000000000000e+00
)
"Rva" (
0.000000000000000e+00
0.000000000000000e+00
)
"RESref" (
1.657575493560000e-22
3.962232981152789e-12
3.962232981318547e-12
)
"out" 1.990535852809124e-06
"freq" 2.831783137536548e+01
"RESva" (
0.000000000000000e+00
0.000000000000000e+00
0.000000000000000e+00
)
"Rref" (
0.000000000000000e+00
0.000000000000000e+00
)
"Rva" (
0.000000000000000e+00
0.000000000000000e+00
)
"RESref" (
1.657575493560000e-22
3.531343861556890e-12
3.531343861722648e-12
)
"out" 1.879187021486326e-06
"freq" 3.177312938897122e+01
"RESva" (
0.000000000000000e+00
0.000000000000000e+00
0.000000000000000e+00
)
"Rref" (
0.000000000000000e+00
0.000000000000000e+00
)
"Rva" (
0.000000000000000e+00
0.000000000000000e+00
)
"RESref" (
1.657575493560000e-22
3.147313529485421e-12
3.147313529651179e-12
)
"out" 1.774066946214595e-06
"freq" 3.565003752534977e+01
"RESva" (
0.000000000000000e+00
0.000000000000000e+00
0.000000000000000e+00
)
"Rref" (
0.000000000000000e+00
0.000000000000000e+00
)
"Rva" (
0.000000000000000e+00
0.000000000000000e+00
)
"RESref" (
1.657575493560000e-22
2.805046135754912e-12
2.805046135920670e-12
)
"out" 1.674827195838624e-06
"freq" 3.999999999999994e+01
"RESva" (
0.000000000000000e+00
0.000000000000000e+00
0.000000000000000e+00
)
"Rref" (
0.000000000000000e+00
0.000000000000000e+00
)
"Rva" (
0.000000000000000e+00
0.000000000000000e+00
)
"RESref" (
1.657575493560000e-22
2.500000000000004e-12
2.500000000165762e-12
)
"out" 1.581138830136608e-06
"freq" 4.488073817207846e+01
"RESva" (
0.000000000000000e+00
0.000000000000000e+00
0.000000000000000e+00
)
"Rref" (
0.000000000000000e+00
0.000000000000000e+00
)
"Rva" (
0.000000000000000e+00
0.000000000000000e+00
)
"RESref" (
1.657575493560000e-22
2.228127345334368e-12
2.228127345500125e-12
)
"out" 1.492691309514504e-06
"freq" 5.035701647176660e+01
"RESva" (
0.000000000000000e+00
0.000000000000000e+00
0.000000000000000e+00
)
"Rref" (
0.000000000000000e+00
0.000000000000000e+00
)
"Rva" (
0.000000000000000e+00
0.000000000000000e+00
)
"RESref" (
1.657575493560000e-22
1.985820586810707e-12
1.985820586976465e-12
)
"out" 1.409191465691041e-06
"freq" 5.650150178491007e+01
"RESva" (
0.000000000000000e+00
0.000000000000000e+00
0.000000000000000e+00
)
"Rref" (
0.000000000000000e+00
0.000000000000000e+00
)
"Rva" (
0.000000000000000e+00
0.000000000000000e+00
)
"RESref" (
1.657575493560000e-22
1.769864460960348e-12
1.769864461126106e-12
)
"out" 1.330362529961704e-06
"freq" 6.339572769844442e+01
"RESva" (
0.000000000000000e+00
0.000000000000000e+00
0.000000000000000e+00
)
"Rref" (
0.000000000000000e+00
0.000000000000000e+00
)
"Rva" (
0.000000000000000e+00
0.000000000000000e+00
)
"RESref" (
1.657575493560000e-22
1.577393361200486e-12
1.577393361366244e-12
)
"out" 1.255943215820781e-06
"freq" 7.113117640155677e+01
"RESva" (
0.000000000000000e+00
0.000000000000000e+00
0.000000000000000e+00
)
"Rref" (
0.000000000000000e+00
0.000000000000000e+00
)
"Rva" (
0.000000000000000e+00
0.000000000000000e+00
)
"RESref" (
1.657575493560000e-22
1.405853312975875e-12
1.405853313141633e-12
)
"out" 1.185686852900728e-06
"freq" 7.981049259875502e+01
"RESva" (
0.000000000000000e+00
0.000000000000000e+00
0.000000000000000e+00
)
"Rref" (
0.000000000000000e+00
0.000000000000000e+00
)
"Rva" (
0.000000000000000e+00
0.000000000000000e+00
)
"RESref" (
1.657575493560000e-22
1.252968084068183e-12
1.252968084233941e-12
)
"out" 1.119360569358212e-06
"freq" 8.954884554273339e+01
"RESva" (
0.000000000000000e+00
0.000000000000000e+00
0.000000000000000e+00
)
"Rref" (
0.000000000000000e+00
0.000000000000000e+00
)
"Rva" (
0.000000000000000e+00
0.000000000000000e+00
)
"RESref" (
1.657575493560000e-22
1.116708980377410e-12
1.116708980543168e-12
)
"out" 1.056744519996753e-06
"freq" 1.004754572603830e+02
"RESva" (
0.000000000000000e+00
0.000000000000000e+00
0.000000000000000e+00
)
"Rref" (
0.000000000000000e+00
0.000000000000000e+00
)
"Rva" (
0.000000000000000e+00
0.000000000000000e+00
)
"RESref" (
1.657575493560000e-22
9.952679263837452e-13
9.952679265495028e-13
)
"out" 9.976311575675163e-07
"freq" 1.127353172505779e+02
"RESva" (
0.000000000000000e+00
0.000000000000000e+00
0.000000000000000e+00
)
"Rref" (
0.000000000000000e+00
0.000000000000000e+00
)
"Rva" (
0.000000000000000e+00
0.000000000000000e+00
)
"RESref" (
1.657575493560000e-22
8.870334730839406e-13
8.870334732496981e-13
)
"out" 9.418245448328994e-07
"freq" 1.264911064067349e+02
"RESva" (
0.000000000000000e+00
0.000000000000000e+00
0.000000000000000e+00
)
"Rref" (
0.000000000000000e+00
0.000000000000000e+00
)
"Rva" (
0.000000000000000e+00
0.000000000000000e+00
)
"RESref" (
1.657575493560000e-22
7.905694150420967e-13
7.905694152078542e-13
)
"out" 8.891397051126748e-07
"freq" 1.419253556934298e+02
"RESva" (
0.000000000000000e+00
0.000000000000000e+00
0.000000000000000e+00
)
"Rref" (
0.000000000000000e+00
0.000000000000000e+00
)
"Rva" (
0.000000000000000e+00
0.000000000000000e+00
)
"RESref" (
1.657575493560000e-22
7.045957328161152e-13
7.045957329818728e-13
)
"out" 8.394020091600167e-07
"freq" 1.592428682213985e+02
"RESva" (
0.000000000000000e+00
0.000000000000000e+00
0.000000000000000e+00
)
"Rref" (
0.000000000000000e+00
0.000000000000000e+00
)
"Rva" (
0.000000000000000e+00
0.000000000000000e+00
)
"RESref" (
1.657575493560000e-22
6.279716078773967e-13
6.279716080431542e-13
)
"out" 7.924465963351437e-07
"freq" 1.786734368603848e+02
"RESva" (
0.000000000000000e+00
0.000000000000000e+00
0.000000000000000e+00
)
"Rref" (
0.000000000000000e+00
0.000000000000000e+00
)
"Rva" (
0.000000000000000e+00
0.000000000000000e+00
)
"RESref" (
1.657575493560000e-22
5.596802846420865e-13
5.596802848078440e-13
)
"out" 7.481178281580008e-07
"freq" 2.004748934509084e+02
"RESva" (
0.000000000000000e+00
0.000000000000000e+00
0.000000000000000e+00
)
"Rref" (
0.000000000000000e+00
0.000000000000000e+00
)
"Rva" (
0.000000000000000e+00
0.000000000000000e+00
)
"RESref" (
1.657575493560000e-22
4.988155787422213e-13
4.988155789079788e-13
)
"out" 7.062687724287254e-07
"freq" 2.249365300761390e+02
"RESva" (
0.000000000000000e+00
0.000000000000000e+00
0.000000000000000e+00
)
"Rref" (
0.000000000000000e+00
0.000000000000000e+00
)
"Rva" (
0.000000000000000e+00
0.000000000000000e+00
)
"RESref" (
1.657575493560000e-22
4.445698525097321e-13
4.445698526754896e-13
)
"out" 6.667607162059637e-07
"freq" 2.523829377920765e+02
"RESva" (
0.000000000000000e+00
0.000000000000000e+00
0.000000000000000e+00
)
"Rref" (
0.000000000000000e+00
0.000000000000000e+00
)
"Rva" (
0.000000000000000e+00
0.000000000000000e+00
)
"RESref" (
1.657575493560000e-22
3.962232981152796e-13
3.962232982810371e-13
)
"out" 6.294627060287505e-07
"freq" 2.831783137536543e+02
"RESva" (
0.000000000000000e+00
0.000000000000000e+00
0.000000000000000e+00
)
"Rref" (
0.000000000000000e+00
0.000000000000000e+00
)
"Rva" (
0.000000000000000e+00
0.000000000000000e+00
)
"RESref" (
1.657575493560000e-22
3.531343861556896e-13
3.531343863214472e-13
)
"out" 5.942511138579778e-07
"freq" 3.177312938897117e+02
"RESva" (
0.000000000000000e+00
0.000000000000000e+00
0.000000000000000e+00
)
"Rref" (
0.000000000000000e+00
0.000000000000000e+00
)
"Rva" (
0.000000000000000e+00
0.000000000000000e+00
)
"RESref" (
1.657575493560000e-22
3.147313529485427e-13
3.147313531143003e-13
)
"out" 5.610092272987141e-07
"freq" 3.565003752534971e+02
"RESva" (
0.000000000000000e+00
0.000000000000000e+00
0.000000000000000e+00
)
"Rref" (
0.000000000000000e+00
0.000000000000000e+00
)
"Rva" (
0.000000000000000e+00
0.000000000000000e+00
)
"RESref" (
1.657575493560000e-22
2.805046135754917e-13
2.805046137412493e-13
)
"out" 5.296268627451304e-07
"freq" 3.999999999999987e+02
"RESva" (
0.000000000000000e+00
0.000000000000000e+00
0.000000000000000e+00
)
"Rref" (
0.000000000000000e+00
0.000000000000000e+00
)
"Rva" (
0.000000000000000e+00
0.000000000000000e+00
)
"RESref" (
1.657575493560000e-22
2.500000000000008e-13
2.500000001657584e-13
)
"out" 5.000000001657584e-07
"freq" 4.488073817207840e+02
"RESva" (
0.000000000000000e+00
0.000000000000000e+00
0.000000000000000e+00
)
"Rref" (
0.000000000000000e+00
0.000000000000000e+00
)
"Rva" (
0.000000000000000e+00
0.000000000000000e+00
)
"RESref" (
1.657575493560000e-22
2.228127345334371e-13
2.228127346991946e-13
)
"out" 4.720304383185417e-07
"freq" 5.035701647176653e+02
"RESva" (
0.000000000000000e+00
0.000000000000000e+00
0.000000000000000e+00
)
"Rref" (
0.000000000000000e+00
0.000000000000000e+00
)
"Rva" (
0.000000000000000e+00
0.000000000000000e+00
)
"RESref" (
1.657575493560000e-22
1.985820586810710e-13
1.985820588468286e-13
)
"out" 4.456254692528566e-07
"freq" 5.650150178490999e+02
"RESva" (
0.000000000000000e+00
0.000000000000000e+00
0.000000000000000e+00
)
"Rref" (
0.000000000000000e+00
0.000000000000000e+00
)
"Rva" (
0.000000000000000e+00
0.000000000000000e+00
)
"RESref" (
1.657575493560000e-22
1.769864460960351e-13
1.769864462617926e-13
)
"out" 4.206975710196014e-07
"freq" 6.339572769844433e+02
"RESva" (
0.000000000000000e+00
0.000000000000000e+00
0.000000000000000e+00
)
"Rref" (
0.000000000000000e+00
0.000000000000000e+00
)
"Rva" (
0.000000000000000e+00
0.000000000000000e+00
)
"RESref" (
1.657575493560000e-22
1.577393361200488e-13
1.577393362858064e-13
)
"out" 3.971641175708178e-07
"freq" 7.113117640155667e+02
"RESva" (
0.000000000000000e+00
0.000000000000000e+00
0.000000000000000e+00
)
"Rref" (
0.000000000000000e+00
0.000000000000000e+00
)
"Rva" (
0.000000000000000e+00
0.000000000000000e+00
)
"RESref" (
1.657575493560000e-22
1.405853312975878e-13
1.405853314633453e-13
)
"out" 3.749471048872698e-07
"freq" 7.981049259875491e+02
"RESva" (
0.000000000000000e+00
0.000000000000000e+00
0.000000000000000e+00
)
"Rref" (
0.000000000000000e+00
0.000000000000000e+00
)
"Rva" (
0.000000000000000e+00
0.000000000000000e+00
)
"RESref" (
1.657575493560000e-22
1.252968084068185e-13
1.252968085725760e-13
)
"out" 3.539728924262083e-07
"freq" 8.954884554273327e+02
"RESva" (
0.000000000000000e+00
0.000000000000000e+00
0.000000000000000e+00
)
"Rref" (
0.000000000000000e+00
0.000000000000000e+00
)
"Rva" (
0.000000000000000e+00
0.000000000000000e+00
)
"RESref" (
1.657575493560000e-22
1.116708980377412e-13
1.116708982034987e-13
)
"out" 3.341719590323202e-07
"freq" 1.004754572603828e+03
"RESva" (
0.000000000000000e+00
0.000000000000000e+00
0.000000000000000e+00
)
"Rref" (
0.000000000000000e+00
0.000000000000000e+00
)
"Rva" (
0.000000000000000e+00
0.000000000000000e+00
)
"RESref" (
1.657575493560000e-22
9.952679263837466e-14
9.952679280413221e-14
)
"out" 3.154786725028052e-07
"freq" 1.127353172505777e+03
"RESva" (
0.000000000000000e+00
0.000000000000000e+00
0.000000000000000e+00
)
"Rref" (
0.000000000000000e+00
0.000000000000000e+00
)
"Rva" (
0.000000000000000e+00
0.000000000000000e+00
)
"RESref" (
1.657575493560000e-22
8.870334730839419e-14
8.870334747415174e-14
)
"out" 2.978310720427802e-07
"freq" 1.264911064067347e+03
"RESva" (
0.000000000000000e+00
0.000000000000000e+00
0.000000000000000e+00
)
"Rref" (
0.000000000000000e+00
0.000000000000000e+00
)
"Rva" (
0.000000000000000e+00
0.000000000000000e+00
)
"RESref" (
1.657575493560000e-22
7.905694150420978e-14
7.905694166996733e-14
)
"out" 2.811706628899383e-07
"freq" 1.419253556934297e+03
"RESva" (
0.000000000000000e+00
0.000000000000000e+00
0.000000000000000e+00
)
"Rref" (
0.000000000000000e+00
0.000000000000000e+00
)
"Rva" (
0.000000000000000e+00
0.000000000000000e+00
)
"RESref" (
1.657575493560000e-22
7.045957328161161e-14
7.045957344736916e-14
)
"out" 2.654422224277237e-07
"freq" 1.592428682213983e+03
"RESva" (
0.000000000000000e+00
0.000000000000000e+00
0.000000000000000e+00
)
"Rref" (
0.000000000000000e+00
0.000000000000000e+00
)
"Rva" (
0.000000000000000e+00
0.000000000000000e+00
)
"RESref" (
1.657575493560000e-22
6.279716078773975e-14
6.279716095349730e-14
)
"out" 2.505936171443664e-07
"freq" 1.786734368603845e+03
"RESva" (
0.000000000000000e+00
0.000000000000000e+00
0.000000000000000e+00
)
"Rref" (
0.000000000000000e+00
0.000000000000000e+00
)
"Rva" (
0.000000000000000e+00
0.000000000000000e+00
)
"RESref" (
1.657575493560000e-22
5.596802846420870e-14
5.596802862996625e-14
)
"out" 2.365756298310675e-07
"freq" 2.004748934509081e+03
"RESva" (
0.000000000000000e+00
0.000000000000000e+00
0.000000000000000e+00
)
"Rref" (
0.000000000000000e+00
0.000000000000000e+00
)
"Rva" (
0.000000000000000e+00
0.000000000000000e+00
)
"RESref" (
1.657575493560000e-22
4.988155787422219e-14
4.988155803997974e-14
)
"out" 2.233417964465669e-07
"freq" 2.249365300761387e+03
"RESva" (
0.000000000000000e+00
0.000000000000000e+00
0.000000000000000e+00
)
"Rref" (
0.000000000000000e+00
0.000000000000000e+00
)
"Rva" (
0.000000000000000e+00
0.000000000000000e+00
)
"RESref" (
1.657575493560000e-22
4.445698525097325e-14
4.445698541673080e-14
)
"out" 2.108482521073647e-07
"freq" 2.523829377920762e+03
"RESva" (
0.000000000000000e+00
0.000000000000000e+00
0.000000000000000e+00
)
"Rref" (
0.000000000000000e+00
0.000000000000000e+00
)
"Rva" (
0.000000000000000e+00
0.000000000000000e+00
)
"RESref" (
1.657575493560000e-22
3.962232981152801e-14
3.962232997728555e-14
)
"out" 1.990535856931132e-07
"freq" 2.831783137536539e+03
"RESva" (
0.000000000000000e+00
0.000000000000000e+00
0.000000000000000e+00
)
"Rref" (
0.000000000000000e+00
0.000000000000000e+00
)
"Rva" (
0.000000000000000e+00
0.000000000000000e+00
)
"RESref" (
