HEADER
"PSFversion" "1.00"
"BINPSF creation time" "1634687432"
"ENV_VAR_0" "CDS_INST_ROOT=/nfs/tools/cadence/virtuoso/IC618_isr14"
"ENV_VAR_1" "CDS_LC_ALL=en_US.UTF-8"
"ENV_VAR_2" "CDS_Netlisting_Mode=Analog"
"ENV_VAR_3" "CDS_PSFXL_MAX_BUFSIZE=256000000"
"ENV_VAR_4" "CDS_USE_XVFB=1"
"simulator" "spectre"
"version" "19.1.0.455.isr11"
"date" "4:50:31 PM, Tue Oct 19, 2021"
"design" "// Generated for: spectre"
"analysis type" "tran"
"analysis name" "tran"
"analysis description" "Transient Analysis `tran': time = (0 s -> 6.7 us)"
"xVecSorted" "ascending"
"tolerance.relative" 0.00100000
"start" 0.00000
"outputstart" 3.00000e-07
"stop" 6.70000e-06
"step" 6.70000e-09
"istep" 0.00100000
"maxstep" 1.00000e-10
"ic" "all"
"useprevic" "no"
"skipdc" "no"
"reltol" 0.000100000
"abstol(V)" 1.00000e-06
"abstol(I)" 1.00000e-12
"temp" 27.0000
"tnom" 27.0000
"tempeffects" "all"
"errpreset" "conservative"
"method" "gear2"
"lteratio" 10.0000
"relref" "alllocal"
"cmin" 0.00000
"gmin" 1.00000e-12
TYPE
"sweep" FLOAT DOUBLE PROP(
"key" "sweep"
)
"LogicV" FLOAT DOUBLE PROP(
"key" "node"
)
"Real" FLOAT DOUBLE PROP(
"units" ""
"key" "node"
"tolerance" 1.00000e-06
)
"Tau" FLOAT DOUBLE PROP(
"units" "N*m"
"key" "node"
"tolerance" 1.00000e-06
)
"Alpha" FLOAT DOUBLE PROP(
"units" "rads/s^2"
"key" "node"
"tolerance" 1.00000e-06
)
"Omega" FLOAT DOUBLE PROP(
"units" "rads/s"
"key" "node"
"tolerance" 1.00000e-06
)
"Theta" FLOAT DOUBLE PROP(
"units" "rads"
"key" "node"
"tolerance" 1.00000e-06
)
"F" FLOAT DOUBLE PROP(
"units" "N"
"key" "node"
"tolerance" 1.00000e-06
)
"Imp" FLOAT DOUBLE PROP(
"units" "m/s^3"
"key" "node"
"tolerance" 1.00000e-06
)
"Acc" FLOAT DOUBLE PROP(
"units" "m/s^2"
"key" "node"
"tolerance" 1.00000e-06
)
"Vel" FLOAT DOUBLE PROP(
"units" "m/s"
"key" "node"
"tolerance" 1.00000e-06
)
"Pos" FLOAT DOUBLE PROP(
"units" "m"
"key" "node"
"tolerance" 1.00000e-06
)
"Phi" FLOAT DOUBLE PROP(
"units" "Wb"
"key" "node"
"tolerance" 1.00000e-09
)
"V" FLOAT DOUBLE PROP(
"units" "V"
"key" "node"
"tolerance" 1.00000e-06
)
"I" FLOAT DOUBLE PROP(
"units" "A"
"key" "branch"
"tolerance" 1.00000e-12
)
"MMF" FLOAT DOUBLE PROP(
"units" "A*turn"
"key" "node"
"tolerance" 1.00000e-12
)
"Wb" FLOAT DOUBLE PROP(
"units" "Wb"
"key" "node"
"tolerance" 1.00000e-09
)
"Temp" FLOAT DOUBLE PROP(
"units" "C"
"key" "node"
"tolerance" 0.000100000
)
"Pwr" FLOAT DOUBLE PROP(
"units" "W"
"key" "node"
"tolerance" 1.00000e-09
)
"U" FLOAT DOUBLE PROP(
"units" ""
"key" "node"
"tolerance" 1.00000e-06
)
"V/Sec" FLOAT DOUBLE PROP(
"units" "V/s"
"key" "node"
"tolerance" 0.000100000
)
"I/Sec" FLOAT DOUBLE PROP(
"units" "A/s"
"key" "node"
"tolerance" 1.00000e-06
)
"1/Sec" FLOAT DOUBLE PROP(
"units" "1/s"
"key" "node"
"tolerance" 0.000100000
)
"HOD" FLOAT DOUBLE PROP(
"units" ""
"key" "node"
"tolerance" 0.0100000
)
"Q" FLOAT DOUBLE PROP(
"units" "coul"
"key" "node"
"tolerance" 1.00000e-14
)
SWEEP
"time" "sweep" PROP(
"sweep_direction" 0
"units" "s"
"plot" 0
"grid" 1
)
TRACE
"group" GROUP 311
"vdd" "V"
"vss" "V"
"net4\<0\>" "V"
"net4\<1\>" "V"
"net4\<2\>" "V"
"net4\<3\>" "V"
"net4\<4\>" "V"
"net4\<5\>" "V"
"net4\<6\>" "V"
"net4\<7\>" "V"
"net4\<8\>" "V"
"net4\<9\>" "V"
"net4\<10\>" "V"
"vref" "V"
"conP\<2\>" "V"
"conP\<3\>" "V"
"conP\<4\>" "V"
"conP\<5\>" "V"
"conP\<6\>" "V"
"conP\<7\>" "V"
"conP\<8\>" "V"
"conP\<9\>" "V"
"conP\<10\>" "V"
"conP\<11\>" "V"
"net1\<0\>" "V"
"net1\<1\>" "V"
"net1\<2\>" "V"
"net1\<3\>" "V"
"net1\<4\>" "V"
"net1\<5\>" "V"
"net1\<6\>" "V"
"net1\<7\>" "V"
"net1\<8\>" "V"
"net1\<9\>" "V"
"net1\<10\>" "V"
"conM\<2\>" "V"
"conM\<3\>" "V"
"conM\<4\>" "V"
"conM\<5\>" "V"
"conM\<6\>" "V"
"conM\<7\>" "V"
"conM\<8\>" "V"
"conM\<9\>" "V"
"conM\<10\>" "V"
"conM\<11\>" "V"
"vic" "V"
"vid" "V"
"vip" "V"
"vim" "V"
"Dout\<0\>" "V"
"Dout\<1\>" "V"
"Dout\<2\>" "V"
"Dout\<3\>" "V"
"Dout\<4\>" "V"
"Dout\<5\>" "V"
"Dout\<6\>" "V"
"Dout\<7\>" "V"
"Dout\<8\>" "V"
"Dout\<9\>" "V"
"Dout\<10\>" "V"
"Dout\<11\>" "V"
"vod" "V"
"phiC" "V"
"phiS" "V"
"phi_ext" "V"
"net7\<0\>" "V"
"net7\<1\>" "V"
"net7\<2\>" "V"
"net7\<3\>" "V"
"net7\<4\>" "V"
"net7\<5\>" "V"
"net7\<6\>" "V"
"net7\<7\>" "V"
"net7\<8\>" "V"
"net7\<9\>" "V"
"net7\<10\>" "V"
"vimth" "V"
"net2\<0\>" "V"
"net2\<1\>" "V"
"net2\<2\>" "V"
"net2\<3\>" "V"
"net2\<4\>" "V"
"net2\<5\>" "V"
"net2\<6\>" "V"
"net2\<7\>" "V"
"net2\<8\>" "V"
"net2\<9\>" "V"
"net2\<10\>" "V"
"vipth" "V"
"voutp" "V"
"voutm" "V"
"conM\<0\>" "V"
"conM\<1\>" "V"
"conP\<0\>" "V"
"conP\<1\>" "V"
"I73.net2" "V"
"I73.net15" "V"
"I73.net19" "V"
"I73.net18" "V"
"I73.net17" "V"
"I73.net16" "V"
"I73.net22" "V"
"I73.net21" "V"
"I73.net20" "V"
"I73.net1" "V"
"I73.I33.net9" "V"
"I73.I32.net9" "V"
"I73.I31.net9" "V"
"I73.I17.net9" "V"
"I73.I16.net9" "V"
"I73.I15.net9" "V"
"I73.I14.net9" "V"
"I73.I13.net9" "V"
"I73.I12.net9" "V"
"I73.I11.net9" "V"
"I73.I10.net9" "V"
"I73.I9.net9" "V"
"I73.I8.net9" "V"
"I73.I7.net9" "V"
"I73.I6.net9" "V"
"I73.I5.net9" "V"
"I73.I4.net9" "V"
"I73.I3.net9" "V"
"I73.I2.net9" "V"
"I73.I1.net9" "V"
"I73.I30.net9" "V"
"I71.net2" "V"
"I71.net15" "V"
"I71.net19" "V"
"I71.net18" "V"
"I71.net17" "V"
"I71.net16" "V"
"I71.net22" "V"
"I71.net21" "V"
"I71.net20" "V"
"I71.net1" "V"
"I71.I33.net9" "V"
"I71.I32.net9" "V"
"I71.I31.net9" "V"
"I71.I17.net9" "V"
"I71.I16.net9" "V"
"I71.I15.net9" "V"
"I71.I14.net9" "V"
"I71.I13.net9" "V"
"I71.I12.net9" "V"
"I71.I11.net9" "V"
"I71.I10.net9" "V"
"I71.I9.net9" "V"
"I71.I8.net9" "V"
"I71.I7.net9" "V"
"I71.I6.net9" "V"
"I71.I5.net9" "V"
"I71.I4.net9" "V"
"I71.I3.net9" "V"
"I71.I2.net9" "V"
"I71.I1.net9" "V"
"I71.I30.net9" "V"
"I64.net03" "V"
"I64.net02" "V"
"I64.net9" "V"
"I64.I6.net11" "V"
"I64.I5.net11" "V"
"I64.I3.net11" "V"
"I64.I2.net11" "V"
"I70.net1\<0\>" "V"
"I70.net1\<1\>" "V"
"I70.net1\<2\>" "V"
"I70.net1\<3\>" "V"
"I70.net1\<4\>" "V"
"I70.net1\<5\>" "V"
"I70.net1\<6\>" "V"
"I70.net1\<7\>" "V"
"I70.net1\<8\>" "V"
"I70.net1\<9\>" "V"
"I70.net1\<10\>" "V"
"I70.net1\<11\>" "V"
"I70.net2\<0\>" "V"
"I70.net2\<1\>" "V"
"I70.net2\<2\>" "V"
"I70.net2\<3\>" "V"
"I70.net2\<4\>" "V"
"I70.net2\<5\>" "V"
"I70.net2\<6\>" "V"
"I70.net2\<7\>" "V"
"I70.net2\<8\>" "V"
"I70.net2\<9\>" "V"
"I70.net2\<10\>" "V"
"I70.net2\<11\>" "V"
"I70.net3\<0\>" "V"
"I70.net3\<1\>" "V"
"I70.net3\<2\>" "V"
"I70.net3\<3\>" "V"
"I70.net3\<4\>" "V"
"I70.net3\<5\>" "V"
"I70.net3\<6\>" "V"
"I70.net3\<7\>" "V"
"I70.net3\<8\>" "V"
"I70.net3\<9\>" "V"
"I70.net3\<10\>" "V"
"I70.net3\<11\>" "V"
"I70.I5\<0\>.net11" "V"
"I70.I5\<1\>.net11" "V"
"I70.I5\<2\>.net11" "V"
"I70.I5\<3\>.net11" "V"
"I70.I5\<4\>.net11" "V"
"I70.I5\<5\>.net11" "V"
"I70.I5\<6\>.net11" "V"
"I70.I5\<7\>.net11" "V"
"I70.I5\<8\>.net11" "V"
"I70.I5\<9\>.net11" "V"
"I70.I5\<10\>.net11" "V"
"I70.I5\<11\>.net11" "V"
"I70.I6\<0\>.net11" "V"
"I70.I6\<1\>.net11" "V"
"I70.I6\<2\>.net11" "V"
"I70.I6\<3\>.net11" "V"
"I70.I6\<4\>.net11" "V"
"I70.I6\<5\>.net11" "V"
"I70.I6\<6\>.net11" "V"
"I70.I6\<7\>.net11" "V"
"I70.I6\<8\>.net11" "V"
"I70.I6\<9\>.net11" "V"
"I70.I6\<10\>.net11" "V"
"I70.I6\<11\>.net11" "V"
"I70.I7\<0\>.net11" "V"
"I70.I7\<1\>.net11" "V"
"I70.I7\<2\>.net11" "V"
"I70.I7\<3\>.net11" "V"
"I70.I7\<4\>.net11" "V"
"I70.I7\<5\>.net11" "V"
"I70.I7\<6\>.net11" "V"
"I70.I7\<7\>.net11" "V"
"I70.I7\<8\>.net11" "V"
"I70.I7\<9\>.net11" "V"
"I70.I7\<10\>.net11" "V"
"I70.I7\<11\>.net11" "V"
"I68.net2" "V"
"I68.net1" "V"
"I68.net15" "V"
"I68.net19" "V"
"I68.net18" "V"
"I68.net17" "V"
"I68.net16" "V"
"I68.net22" "V"
"I68.net21" "V"
"I68.net20" "V"
"I68.net23" "V"
"I68.I33.net9" "V"
"I68.I32.net9" "V"
"I68.I31.net9" "V"
"I68.I30.net9" "V"
"I68.I17.net9" "V"
"I68.I16.net9" "V"
"I68.I15.net9" "V"
"I68.I14.net9" "V"
"I68.I13.net9" "V"
"I68.I12.net9" "V"
"I68.I11.net9" "V"
"I68.I10.net9" "V"
"I68.I9.net9" "V"
"I68.I8.net9" "V"
"I68.I7.net9" "V"
"I68.I6.net9" "V"
"I68.I5.net9" "V"
"I68.I4.net9" "V"
"I68.I3.net9" "V"
"I68.I2.net9" "V"
"I68.I1.net9" "V"
"I68.I0.net9" "V"
"I72.net2" "V"
"I72.net1" "V"
"I72.net15" "V"
"I72.net19" "V"
"I72.net18" "V"
"I72.net17" "V"
"I72.net16" "V"
"I72.net22" "V"
"I72.net21" "V"
"I72.net20" "V"
"I72.net23" "V"
"I72.I33.net9" "V"
"I72.I32.net9" "V"
"I72.I31.net9" "V"
"I72.I30.net9" "V"
"I72.I17.net9" "V"
"I72.I16.net9" "V"
"I72.I15.net9" "V"
"I72.I14.net9" "V"
"I72.I13.net9" "V"
"I72.I12.net9" "V"
"I72.I11.net9" "V"
"I72.I10.net9" "V"
"I72.I9.net9" "V"
"I72.I8.net9" "V"
"I72.I7.net9" "V"
"I72.I6.net9" "V"
"I72.I5.net9" "V"
"I72.I4.net9" "V"
"I72.I3.net9" "V"
"I72.I2.net9" "V"
"I72.I1.net9" "V"
"I72.I0.net9" "V"
"I43.I2.net9" "V"
"I43.I0.net9" "V"
"V0:p" "I"
"V1:p" "I"
"V2:p" "I"
"V3:p" "I"
"V6:p" "I"
"V7:p" "I"
"I64.V0:p" "I"
VALUE
"time" 3.00000e-07
"group" 1.20000
0.00000
0.600000
0.600000
-9.72447e-12
0.600000
0.600000
5.13369e-11
5.56985e-11
5.78792e-11
0.600000
5.95148e-11
-5.45191e-13
0.600000
7.57686e-07
1.20000
7.57686e-07
7.57686e-07
7.57686e-07
1.20000
1.20000
7.57686e-07
1.20000
1.20000
-2.03105e-10
-7.15226e-11
0.600000
2.71643e-11
4.36122e-11
0.600000
0.600000
0.600000
5.90320e-11
0.600000
-5.13995e-13
1.20000
7.57686e-07
1.20000
1.20000
1.20000
7.57686e-07
7.57686e-07
1.20000
7.57686e-07
7.57686e-07
0.650000
0.456076
0.878038
0.421962
7.57686e-07
1.20000
7.57686e-07
1.20000
7.57686e-07
7.57686e-07
7.57686e-07
1.20000
1.20000
7.57686e-07
1.20000
1.20000
0.846191
7.57686e-07
7.57686e-07
0.00000
0.600000
0.600000
-9.72447e-12
0.600000
0.600000
5.13369e-11
5.56985e-11
5.78792e-11
0.600000
5.95148e-11
0.600000
0.767295
-5.73131e-12
2.71643e-11
0.600000
2.71643e-11
4.36122e-11
0.600000
0.600000
0.600000
5.90320e-11
0.600000
5.95460e-11
0.767046
0.00000
1.20000
1.20000
7.57686e-07
7.57686e-07
1.20000
7.57686e-07
1.20000
7.57686e-07
7.57686e-07
1.20000
1.20000
7.57686e-07
1.20000
1.20000
7.57686e-07
0.600000
0.600000
0.600000
-9.71476e-15
0.600000
0.600000
0.600000
0.600000
0.600000
5.12856e-14
0.600000
5.56428e-14
0.600000
5.78214e-14
0.600000
0.600000
0.600000
5.94554e-14
0.600000
-5.44647e-16
0.600000
1.20000
7.57686e-07
1.20000
1.20000
7.57686e-07
7.57686e-07
1.20000
7.57686e-07
7.57686e-07
1.20000
0.600000
-2.02903e-13
-7.14512e-14
0.600000
0.600000
2.71372e-14
0.600000
4.35686e-14
0.600000
0.600000
0.600000
0.600000
0.600000
0.600000
0.600000
5.89730e-14
0.600000
0.600000
0.600000
-5.13481e-16
0.600000
0.00000
0.00000
1.20000
1.20000
1.20000
1.20000
1.20000
0.00000
1.20000
0.00000
1.20000
0.00000
0.00000
0.00000
1.20000
1.20000
0.00000
1.20000
1.20000
0.00000
1.20000
0.00000
1.20000
0.00000
0.00000
0.00000
1.20000
1.20000
0.00000
1.20000
1.20000
1.20000
0.00000
1.20000
0.00000
1.20000
1.20000
1.20000
0.00000
0.00000
1.20000
0.00000
0.00000
1.20000
7.57605e-07
1.20000
7.57605e-07
1.20000
1.20000
1.20000
7.57605e-07
7.57605e-07
1.20000
7.57605e-07
7.57605e-07
1.20000
7.57605e-07
1.20000
7.57605e-07
1.20000
1.20000
1.20000
7.57605e-07
7.57605e-07
1.20000
7.57605e-07
7.57605e-07
7.57605e-07
1.20000
7.57605e-07
1.20000
7.57605e-07
7.57605e-07
7.57605e-07
1.20000
1.20000
7.57605e-07
1.20000
1.20000
7.57686e-07
7.57686e-07
1.20000
7.57686e-07
7.57686e-07
1.20000
1.20000
7.57686e-07
1.20000
1.20000
7.57686e-07
0.600000
-5.72558e-15
2.71372e-14
0.600000
0.600000
0.600000
2.71372e-14
0.600000
4.35686e-14
0.600000
0.600000
0.600000
0.600000
0.600000
0.600000
0.600000
5.89730e-14
0.600000
0.600000
0.600000
5.94865e-14
0.600000
1.20000
1.20000
7.57686e-07
1.20000
1.20000
7.57686e-07
7.57686e-07
1.20000
7.57686e-07
7.57686e-07
1.20000
0.600000
0.600000
0.600000
0.600000
-9.71476e-15
0.600000
0.600000
0.600000
0.600000
0.600000
5.12856e-14
0.600000
5.56428e-14
0.600000
5.78214e-14
0.600000
0.600000
0.600000
5.94554e-14
0.600000
0.600000
0.600000
0.767295
0.767046
-2.50470e-07
-1.27657e-10
2.50528e-07
0.00000
-5.77416e-10
-5.37114e-09
-6.03727e-21
"time" 4.00000e-07
"group" 1.20000
0.00000
0.600000
0.600000
0.600000
2.49886e-11
0.600000
5.12921e-11
0.600000
0.600000
0.600000
5.95120e-11
-5.47991e-13
0.600000
7.57686e-07
1.20000
1.20000
1.20000
7.57686e-07
1.20000
7.57686e-07
1.20000
1.20000
1.20000
-2.01672e-10
-7.08060e-11
-5.37296e-12
0.600000
4.37017e-11
0.600000
5.59704e-11
5.80152e-11
5.90376e-11
0.600000
-5.11195e-13
1.20000
7.57686e-07
7.57686e-07
7.57686e-07
1.20000
7.57686e-07
1.20000
7.57686e-07
7.57686e-07
7.57686e-07
0.650000
0.545089
0.922544
0.377456
1.20000
1.20000
7.57686e-07
1.20000
1.20000
1.20000
7.57686e-07
1.20000
7.57686e-07
1.20000
1.20000
1.20000
0.920654
7.57686e-07
7.57686e-07
0.00000
0.600000
0.600000
0.600000
2.49886e-11
0.600000
5.12921e-11
0.600000
0.600000
0.600000
5.95120e-11
0.600000
0.766992
-5.37296e-12
2.73435e-11
-5.37296e-12
0.600000
4.37017e-11
0.600000
5.59704e-11
5.80152e-11
5.90376e-11
0.600000
5.95488e-11
0.767349
1.20000
0.00000
7.57686e-07
7.57686e-07
1.20000
1.20000
7.57686e-07
7.57686e-07
1.20000
7.57686e-07
7.57686e-07
7.57686e-07
7.57686e-07
1.20000
1.20000
7.57686e-07
0.600000
0.600000
0.600000
0.600000
0.600000
2.49636e-14
0.600000
0.600000
0.600000
5.12409e-14
0.600000
0.600000
0.600000
0.600000
0.600000
0.600000
0.600000
5.94526e-14
0.600000
-5.47443e-16
0.600000
1.20000
1.20000
7.57686e-07
1.20000
1.20000
1.20000
1.20000
7.57686e-07
7.57686e-07
1.20000
0.600000
-2.01471e-13
-7.07353e-14
-5.36760e-15
0.600000
0.600000
0.600000
4.36581e-14
0.600000
0.600000
0.600000
5.59145e-14
0.600000
5.79573e-14
0.600000
5.89786e-14
0.600000
0.600000
0.600000
-5.10684e-16
0.600000
0.00000
0.00000
1.20000
1.20000
1.20000
1.20000
1.20000
1.20000
1.20000
0.00000
1.20000
1.20000
1.20000
0.00000
1.20000
0.00000
1.20000
1.20000
1.20000
1.20000
1.20000
0.00000
1.20000
1.20000
1.20000
0.00000
1.20000
0.00000
1.20000
1.20000
1.20000
0.00000
0.00000
1.20000
0.00000
0.00000
0.00000
1.20000
0.00000
1.20000
0.00000
0.00000
0.00000
7.57605e-07
7.57605e-07
1.20000
7.57605e-07
7.57605e-07
7.57605e-07
1.20000
7.57605e-07
1.20000
7.57605e-07
7.57605e-07
7.57605e-07
7.57605e-07
7.57605e-07
1.20000
7.57605e-07
7.57605e-07
7.57605e-07
1.20000
7.57605e-07
1.20000
7.57605e-07
7.57605e-07
7.57605e-07
1.20000
1.20000
7.57605e-07
1.20000
1.20000
1.20000
7.57605e-07
1.20000
7.57605e-07
1.20000
1.20000
1.20000
7.57686e-07
7.57686e-07
7.57686e-07
1.20000
7.57686e-07
7.57686e-07
7.57686e-07
7.57686e-07
1.20000
1.20000
7.57686e-07
0.600000
-5.36760e-15
2.73162e-14
0.600000
-5.36760e-15
0.600000
0.600000
0.600000
4.36581e-14
0.600000
0.600000
0.600000
5.59145e-14
0.600000
5.79573e-14
0.600000
5.89786e-14
0.600000
0.600000
0.600000
5.94893e-14
0.600000
1.20000
1.20000
1.20000
7.57686e-07
1.20000
1.20000
1.20000
1.20000
7.57686e-07
7.57686e-07
1.20000
0.600000
0.600000
0.600000
0.600000
0.600000
0.600000
2.49636e-14
0.600000
0.600000
0.600000
5.12409e-14
0.600000
0.600000
0.600000
0.600000
0.600000
0.600000
0.600000
5.94526e-14
0.600000
0.600000
0.600000
0.766992
0.767349
-2.58345e-07
-1.27657e-10
2.58396e-07
0.00000
-3.63834e-10
-5.37193e-09
-3.96011e-20
"time" 5.00000e-07
"group" 1.20000
0.00000
0.600000
0.600000
0.600000
0.600000
0.600000
5.12659e-11
5.56630e-11
5.78615e-11
0.600000
5.95104e-11
-5.49629e-13
0.600000
7.57686e-07
1.20000
7.57686e-07
7.57686e-07
7.57686e-07
1.20000
1.20000
1.20000
1.20000
1.20000
-2.00833e-10
-7.03866e-11
-5.16327e-12
2.74484e-11
4.37542e-11
0.600000
0.600000
0.600000
5.90409e-11
0.600000
-5.09557e-13
1.20000
7.57686e-07
1.20000
1.20000
1.20000
7.57686e-07
7.57686e-07
7.57686e-07
7.57686e-07
7.57686e-07
0.650000
0.587159
0.943579
0.356421
7.57686e-07
1.20000
7.57686e-07
1.20000
7.57686e-07
7.57686e-07
7.57686e-07
1.20000
1.20000
1.20000
1.20000
1.20000
0.971191
7.57686e-07
7.57686e-07
0.00000
0.600000
0.600000
0.600000
0.600000
0.600000
5.12659e-11
5.56630e-11
5.78615e-11
0.600000
5.95104e-11
0.600000
0.767270
-5.16327e-12
2.74484e-11
-5.16327e-12
2.74484e-11
4.37542e-11
0.600000
0.600000
0.600000
5.90409e-11
0.600000
5.95504e-11
0.767071
0.00000
1.20000
1.20000
7.57686e-07
7.57686e-07
1.20000
7.57686e-07
7.57686e-07
7.57686e-07
7.57686e-07
1.20000
1.20000
7.57686e-07
1.20000
1.20000
7.57686e-07
0.600000
0.600000
0.600000
0.600000
0.600000
0.600000
0.600000
0.600000
0.600000
5.12147e-14
0.600000
5.56074e-14
0.600000
5.78037e-14
0.600000
0.600000
0.600000
5.94509e-14
0.600000
-5.49080e-16
0.600000
1.20000
1.20000
1.20000
1.20000
7.57686e-07
7.57686e-07
1.20000
7.57686e-07
7.57686e-07
1.20000
0.600000
-2.00633e-13
-7.03163e-14
-5.15812e-15
0.600000
2.74209e-14
0.600000
4.37105e-14
0.600000
0.600000
0.600000
0.600000
0.600000
0.600000
0.600000
5.89819e-14
0.600000
0.600000
0.600000
-5.09048e-16
0.600000
0.00000
0.00000
1.20000
1.20000
1.20000
1.20000
1.20000
0.00000
1.20000
0.00000
1.20000
0.00000
0.00000
0.00000
1.20000
1.20000
1.20000
1.20000
1.20000
0.00000
1.20000
0.00000
1.20000
0.00000
0.00000
0.00000
1.20000
1.20000
1.20000
1.20000
1.20000
1.20000
0.00000
1.20000
0.00000
1.20000
1.20000
1.20000
0.00000
0.00000
0.00000
0.00000
0.00000
1.20000
7.57605e-07
1.20000
7.57605e-07
1.20000
1.20000
1.20000
7.57605e-07
7.57605e-07
7.57605e-07
7.57605e-07
7.57605e-07
1.20000
7.57605e-07
1.20000
7.57605e-07
1.20000
1.20000
1.20000
7.57605e-07
7.57605e-07
7.57605e-07
7.57605e-07
7.57605e-07
7.57605e-07
1.20000
7.57605e-07
1.20000
7.57605e-07
7.57605e-07
7.57605e-07
1.20000
1.20000
1.20000
1.20000
1.20000
7.57686e-07
7.57686e-07
7.57686e-07
7.57686e-07
7.57686e-07
1.20000
1.20000
7.57686e-07
1.20000
1.20000
7.57686e-07
0.600000
-5.15812e-15
2.74209e-14
0.600000
-5.15812e-15
0.600000
2.74209e-14
0.600000
4.37105e-14
0.600000
0.600000
0.600000
0.600000
0.600000
0.600000
0.600000
5.89819e-14
0.600000
0.600000
0.600000
5.94910e-14
0.600000
1.20000
1.20000
1.20000
1.20000
1.20000
7.57686e-07
7.57686e-07
1.20000
7.57686e-07
7.57686e-07
1.20000
0.600000
0.600000
0.600000
0.600000
0.600000
0.600000
0.600000
0.600000
0.600000
0.600000
5.12147e-14
0.600000
5.56074e-14
0.600000
5.78037e-14
0.600000
0.600000
0.600000
5.94509e-14
0.600000
0.600000
0.600000
0.767270
0.767071
-2.53095e-07
-1.27657e-10
2.53152e-07
0.00000
-1.18925e-10
-5.37254e-09
6.77424e-21
"time" 6.00000e-07
"group" 1.20000
0.00000
0.600000
0.600000
0.600000
0.600000
0.600000
0.600000
0.600000
5.78626e-11
5.89613e-11
0.600000
-5.49342e-13
0.600000
1.20000
7.57686e-07
7.57686e-07
1.20000
1.20000
1.20000
1.20000
1.20000
1.20000
1.20000
-2.00980e-10
-7.04598e-11
-5.19993e-12
2.74300e-11
4.37450e-11
5.19025e-11
5.59813e-11
0.600000
0.600000
5.95502e-11
-5.09843e-13
7.57686e-07
1.20000
1.20000
7.57686e-07
7.57686e-07
7.57686e-07
7.57686e-07
7.57686e-07
7.57686e-07
7.57686e-07
0.650000
0.578663
0.939332
0.360668
7.57686e-07
7.57686e-07
1.20000
7.57686e-07
7.57686e-07
1.20000
1.20000
1.20000
1.20000
1.20000
1.20000
1.20000
0.993164
7.57686e-07
7.57686e-07
0.00000
0.600000
0.600000
0.600000
0.600000
0.600000
0.600000
0.600000
5.78626e-11
5.89613e-11
0.600000
5.95107e-11
0.767273
-5.19993e-12
2.74300e-11
-5.19993e-12
2.74300e-11
4.37450e-11
5.19025e-11
5.59813e-11
0.600000
0.600000
5.95502e-11
0.600000
0.767068
0.00000
1.20000
1.20000
1.20000
7.57686e-07
7.57686e-07
7.57686e-07
7.57686e-07
7.57686e-07
7.57686e-07
7.57686e-07
1.20000
1.20000
7.57686e-07
7.57686e-07
7.57686e-07
0.600000
0.600000
0.600000
0.600000
0.600000
0.600000
0.600000
0.600000
0.600000
0.600000
0.600000
0.600000
0.600000
5.78048e-14
0.600000
5.89024e-14
0.600000
0.600000
0.600000
-5.48794e-16
0.600000
1.20000
1.20000
1.20000
1.20000
1.20000
7.57686e-07
7.57686e-07
1.20000
1.20000
1.20000
0.600000
-2.00779e-13
-7.03894e-14
-5.19473e-15
0.600000
2.74026e-14
0.600000
4.37013e-14
0.600000
5.18507e-14
0.600000
5.59253e-14
0.600000
0.600000
0.600000
0.600000
0.600000
5.94907e-14
0.600000
-5.09334e-16
0.600000
0.00000
0.00000
1.20000
1.20000
1.20000
1.20000
1.20000
0.00000
0.00000
1.20000
0.00000
0.00000
1.20000
1.20000
1.20000
1.20000
1.20000
1.20000
1.20000
0.00000
0.00000
1.20000
0.00000
0.00000
1.20000
1.20000
1.20000
1.20000
1.20000
1.20000
1.20000
1.20000
1.20000
0.00000
1.20000
1.20000
0.00000
0.00000
0.00000
0.00000
0.00000
0.00000
0.00000
1.20000
1.20000
7.57605e-07
1.20000
1.20000
7.57605e-07
7.57605e-07
7.57605e-07
7.57605e-07
7.57605e-07
7.57605e-07
7.57605e-07
1.20000
1.20000
7.57605e-07
1.20000
1.20000
7.57605e-07
7.57605e-07
7.57605e-07
7.57605e-07
7.57605e-07
7.57605e-07
7.57605e-07
7.57605e-07
7.57605e-07
1.20000
7.57605e-07
